<Qucs Dataset 0.0.19>
<indep time 61>
  +0.00000000000000000000e+00
  +2.00000000000000004163e-02
  +4.00000000000000008327e-02
  +5.99999999999999977796e-02
  +8.00000000000000016653e-02
  +1.00000000000000005551e-01
  +1.19999999999999995559e-01
  +1.40000000000000013323e-01
  +1.60000000000000003331e-01
  +1.79999999999999993339e-01
  +2.00000000000000011102e-01
  +2.20000000000000001110e-01
  +2.39999999999999991118e-01
  +2.60000000000000008882e-01
  +2.80000000000000026645e-01
  +2.99999999999999988898e-01
  +3.20000000000000006661e-01
  +3.40000000000000024425e-01
  +3.59999999999999986677e-01
  +3.80000000000000004441e-01
  +4.00000000000000022204e-01
  +4.19999999999999984457e-01
  +4.40000000000000002220e-01
  +4.60000000000000019984e-01
  +4.79999999999999982236e-01
  +5.00000000000000000000e-01
  +5.20000000000000017764e-01
  +5.40000000000000035527e-01
  +5.60000000000000053291e-01
  +5.79999999999999960032e-01
  +5.99999999999999977796e-01
  +6.19999999999999995559e-01
  +6.40000000000000013323e-01
  +6.60000000000000031086e-01
  +6.80000000000000048850e-01
  +7.00000000000000066613e-01
  +7.19999999999999973355e-01
  +7.39999999999999991118e-01
  +7.60000000000000008882e-01
  +7.80000000000000026645e-01
  +8.00000000000000044409e-01
  +8.20000000000000062172e-01
  +8.39999999999999968914e-01
  +8.59999999999999986677e-01
  +8.80000000000000004441e-01
  +9.00000000000000022204e-01
  +9.20000000000000039968e-01
  +9.40000000000000057732e-01
  +9.59999999999999964473e-01
  +9.79999999999999982236e-01
  +1.00000000000000000000e+00
  +1.02000000000000001776e+00
  +1.04000000000000003553e+00
  +1.06000000000000005329e+00
  +1.08000000000000007105e+00
  +1.10000000000000008882e+00
  +1.12000000000000010658e+00
  +1.14000000000000012434e+00
  +1.15999999999999992006e+00
  +1.17999999999999993783e+00
  +1.19999999999999995559e+00
</indep>
<dep V1.It time>
  -4.50810491864457856676e-03
  -4.61125981818854419059e-03
  -4.71278844123000639765e-03
  -4.81108955732202289712e-03
  -4.90461282057767268550e-03
  -4.99188322488388659670e-03
  -5.07152437085791642224e-03
  -5.14228017739804064284e-03
  -5.20303469527684872564e-03
  -5.25282971021049510663e-03
  -5.29087985773778711474e-03
  -5.31658501151022720721e-03
  -5.32953974961095262863e-03
  -5.32953974961095176127e-03
  -5.31658501151022547249e-03
  -5.29087985773778538001e-03
  -5.25282971021049076982e-03
  -5.20303469527684525620e-03
  -5.14228017739803543867e-03
  -5.07152437085791035071e-03
  -4.99188322488387879045e-03
  -4.90461282057766401188e-03
  -4.81108955732201335614e-03
  -4.71278844122999598931e-03
  -4.61125981818853291488e-03
  -4.50810491864457249522e-03
  -4.40495060010074462875e-03
  -4.30342368602413486572e-03
  -4.20512530631451768304e-03
  -4.11160564450702408629e-03
  -4.02433949047399652788e-03
  -3.94470298461541656054e-03
  -3.87395192056397882213e-03
  -3.81320194856826213611e-03
  -3.76341099136224275026e-03
  -3.72536414900983062215e-03
  -3.69966132957013022278e-03
  -3.68670779919206322711e-03
  -3.68670779919206496184e-03
  -3.69966132957013369223e-03
  -3.72536414900983669368e-03
  -3.76341099136225142388e-03
  -3.81320194856827167709e-03
  -3.87395192056398966415e-03
  -3.94470298461542870361e-03
  -4.02433949047400953830e-03
  -4.11160564450703709671e-03
  -4.20512530631453156083e-03
  -4.30342368602414787615e-03
  -4.40495060010075677182e-03
  -4.50810491864458463829e-03
  -4.61125981818854419059e-03
  -4.71278844123000639765e-03
  -4.81108955732202289712e-03
  -4.90461282057767442022e-03
  -4.99188322488388659670e-03
  -5.07152437085791728960e-03
  -5.14228017739804064284e-03
  -5.20303469527684872564e-03
  -5.25282971021049423926e-03
  -5.29087985773778711474e-03
</dep>
<dep V2.It time>
  -4.50810491864457856676e-03
  -4.61125981818854419059e-03
  -4.71278844123000639765e-03
  -4.81108955732202289712e-03
  -4.90461282057767268550e-03
  -4.99188322488388659670e-03
  -5.07152437085791642224e-03
  -5.14228017739804064284e-03
  -5.20303469527684872564e-03
  -5.25282971021049510663e-03
  -5.29087985773778711474e-03
  -5.31658501151022720721e-03
  -5.32953974961095262863e-03
  -5.32953974961095176127e-03
  -5.31658501151022547249e-03
  -5.29087985773778538001e-03
  -5.25282971021049076982e-03
  -5.20303469527684525620e-03
  -5.14228017739803543867e-03
  -5.07152437085791035071e-03
  -4.99188322488387879045e-03
  -4.90461282057766401188e-03
  -4.81108955732201335614e-03
  -4.71278844122999598931e-03
  -4.61125981818853291488e-03
  -4.50810491864457249522e-03
  -4.40495060010074462875e-03
  -4.30342368602413486572e-03
  -4.20512530631451768304e-03
  -4.11160564450702408629e-03
  -4.02433949047399652788e-03
  -3.94470298461541656054e-03
  -3.87395192056397882213e-03
  -3.81320194856826213611e-03
  -3.76341099136224275026e-03
  -3.72536414900983062215e-03
  -3.69966132957013022278e-03
  -3.68670779919206322711e-03
  -3.68670779919206496184e-03
  -3.69966132957013369223e-03
  -3.72536414900983669368e-03
  -3.76341099136225142388e-03
  -3.81320194856827167709e-03
  -3.87395192056398966415e-03
  -3.94470298461542870361e-03
  -4.02433949047400953830e-03
  -4.11160564450703709671e-03
  -4.20512530631453156083e-03
  -4.30342368602414787615e-03
  -4.40495060010075677182e-03
  -4.50810491864458463829e-03
  -4.61125981818854419059e-03
  -4.71278844123000639765e-03
  -4.81108955732202289712e-03
  -4.90461282057767442022e-03
  -4.99188322488388659670e-03
  -5.07152437085791728960e-03
  -5.14228017739804064284e-03
  -5.20303469527684872564e-03
  -5.25282971021049423926e-03
  -5.29087985773778711474e-03
</dep>
<dep Inverting.Vt time>
  +2.16465863453815243744e+00
  +2.21398657385261765640e+00
  +2.26253658209701091764e+00
  +2.30954299663894957462e+00
  +2.35426449824083583451e+00
  +2.39599580210707774341e+00
  +2.43407878064663218964e+00
  +2.46791284253826237460e+00
  +2.49696440441444789116e+00
  +2.52077530578983921572e+00
  +2.53897003452580305449e+00
  +2.55126164888117079599e+00
  +2.55745630275490221095e+00
  +2.55745630275490221095e+00
  +2.55126164888117079599e+00
  +2.53897003452580305449e+00
  +2.52077530578983877163e+00
  +2.49696440441444789116e+00
  +2.46791284253826237460e+00
  +2.43407878064663218964e+00
  +2.39599580210707774341e+00
  +2.35426449824083583451e+00
  +2.30954299663894957462e+00
  +2.26253658209701091764e+00
  +2.21398657385261765640e+00
  +2.16465863453815243744e+00
  +2.11533069522368721849e+00
  +2.06678068697929395725e+00
  +2.01977427243735574436e+00
  +1.97505277083546926242e+00
  +1.93332146696922735352e+00
  +1.89523848842967290729e+00
  +1.86140442653804272233e+00
  +1.83235286466185720577e+00
  +1.80854196328646588121e+00
  +1.79034723455050182039e+00
  +1.77805562019513430094e+00
  +1.77186096632140288598e+00
  +1.77186096632140288598e+00
  +1.77805562019513430094e+00
  +1.79034723455050182039e+00
  +1.80854196328646588121e+00
  +1.83235286466185720577e+00
  +1.86140442653804250028e+00
  +1.89523848842967268524e+00
  +1.93332146696922735352e+00
  +1.97505277083546926242e+00
  +2.01977427243735574436e+00
  +2.06678068697929395725e+00
  +2.11533069522368721849e+00
  +2.16465863453815243744e+00
  +2.21398657385261765640e+00
  +2.26253658209701091764e+00
  +2.30954299663894957462e+00
  +2.35426449824083583451e+00
  +2.39599580210707774341e+00
  +2.43407878064663218964e+00
  +2.46791284253826237460e+00
  +2.49696440441444744707e+00
  +2.52077530578983877163e+00
  +2.53897003452580305449e+00
</dep>
<dep NonInverting.Vt time>
  +1.95657640863455939417e+00
  +1.95867931207376932967e+00
  +1.96069526296400686860e+00
  +1.96259880968745226149e+00
  +1.96436778856592408893e+00
  +1.96598314008977292922e+00
  +1.96742868660299130568e+00
  +1.96869089641334915619e+00
  +1.96975865279831308108e+00
  +1.97062304099261198509e+00
  +1.97127716203681124796e+00
  +1.97171597924500097143e+00
  +1.97193620084344156673e+00
  +1.97193620084349285904e+00
  +1.97171597924515817901e+00
  +1.97127716203707281650e+00
  +1.97062304099297835869e+00
  +1.96975865279878381564e+00
  +1.96869089641392513990e+00
  +1.96742868660367009603e+00
  +1.96598314009055430418e+00
  +1.96436778856680693828e+00
  +1.96259880968843214433e+00
  +1.96069526296507823382e+00
  +1.95867931207492351753e+00
  +1.95657640863517379159e+00
  +1.95441540518217515832e+00
  +1.95222855780669291015e+00
  +1.95005137284328089464e+00
  +1.94792224914915701461e+00
  +1.94588187030670201061e+00
  +1.94397231224850353115e+00
  +1.94223585356950989578e+00
  +1.94071350887538995877e+00
  +1.93944334791842565302e+00
  +1.93845870938621422930e+00
  +1.93778645890403500296e+00
  +1.93744546503977366214e+00
  +1.93744546503964931716e+00
  +1.93778645890366574278e+00
  +1.93845870938561604113e+00
  +1.93944334791762140746e+00
  +1.94071350887441029798e+00
  +1.94223585356838812643e+00
  +1.94397231224727540244e+00
  +1.94588187030540304967e+00
  +1.94792224914781919587e+00
  +1.95005137284193663660e+00
  +1.95222855780536641568e+00
  +1.95441540518088885392e+00
  +1.95657640863394766129e+00
  +1.95867931207376821945e+00
  +1.96069526296400620247e+00
  +1.96259880968745226149e+00
  +1.96436778856592364484e+00
  +1.96598314008977204104e+00
  +1.96742868660299041750e+00
  +1.96869089641334826801e+00
  +1.96975865279831241494e+00
  +1.97062304099261176304e+00
  +1.97127716203681147000e+00
</dep>
<dep Out.Vt time>
  -1.49995617642745902032e+01
  -1.49996428261985190744e+01
  -1.49996978907145344095e+01
  -1.49997371650291757561e+01
  -1.49997661199415208699e+01
  -1.49997879386508436994e+01
  -1.49998045879205221809e+01
  -1.49998173376271335400e+01
  -1.49998270332503249591e+01
  -1.49998342475872536994e+01
  -1.49998393690150297886e+01
  -1.49998426542202860645e+01
  -1.49998442597188859082e+01
  -1.49998442597188859082e+01
  -1.49998426542202878409e+01
  -1.49998393690150297886e+01
  -1.49998342475872519231e+01
  -1.49998270332503249591e+01
  -1.49998173376271353163e+01
  -1.49998045879205239572e+01
  -1.49997879386508419230e+01
  -1.49997661199415226463e+01
  -1.49997371650291757561e+01
  -1.49996978907145344095e+01
  -1.49996428261985172981e+01
  -1.49995617642745884268e+01
  -1.49994333101276620113e+01
  -1.49992039513737083212e+01
  -1.49986921217384985283e+01
  -1.49966388754861874588e+01
  +1.49927399586415646127e+01
  +1.49981288342066090280e+01
  +1.49988718612524536411e+01
  +1.49991584669350803694e+01
  +1.49993033758552485324e+01
  +1.49993843214021556065e+01
  +1.49994291079549419976e+01
  +1.49994492898436586614e+01
  +1.49994492898436568851e+01
  +1.49994291079549437740e+01
  +1.49993843214021520538e+01
  +1.49993033758552449797e+01
  +1.49991584669350697112e+01
  +1.49988718612524358775e+01
  +1.49981288342065610664e+01
  +1.49927399586408185428e+01
  -1.49966388754863544364e+01
  -1.49986921217385251737e+01
  -1.49992039513737172030e+01
  -1.49994333101276673403e+01
  -1.49995617642745902032e+01
  -1.49996428261985190744e+01
  -1.49996978907145344095e+01
  -1.49997371650291757561e+01
  -1.49997661199415208699e+01
  -1.49997879386508436994e+01
  -1.49998045879205221809e+01
  -1.49998173376271335400e+01
  -1.49998270332503249591e+01
  -1.49998342475872536994e+01
  -1.49998393690150297886e+01
</dep>
<dep _net3.Vt time>
  +6.52192136211519835065e-01
  +6.52893104024589887580e-01
  +6.53565087654669030215e-01
  +6.54199603229150605799e-01
  +6.54789262855308029643e-01
  +6.55327713363257680079e-01
  +6.55809562200997175907e-01
  +6.56230298804449607708e-01
  +6.56586217599437804715e-01
  +6.56874346997537217341e-01
  +6.57092387345603712312e-01
  +6.57238659748333620136e-01
  +6.57312066947814077622e-01
  +6.57312066947831064034e-01
  +6.57238659748386022663e-01
  +6.57092387345690864819e-01
  +6.56874346997659563918e-01
  +6.56586217599594679228e-01
  +6.56230298804641787314e-01
  +6.55809562201223217315e-01
  +6.55327713363518027379e-01
  +6.54789262855602349767e-01
  +6.54199603229477344435e-01
  +6.53565087655026188962e-01
  +6.52893104024974468835e-01
  +6.52192136211724560191e-01
  +6.51471801727391608416e-01
  +6.50742852602230970049e-01
  +6.50017124281093594540e-01
  +6.49307416383052449227e-01
  +6.48627290102233966529e-01
  +6.47990770749501066028e-01
  +6.47411951189836631926e-01
  +6.46904502958463356599e-01
  +6.46481115972808551007e-01
  +6.46152903128737854388e-01
  +6.45928819634678408335e-01
  +6.45815155013257813366e-01
  +6.45815155013216402047e-01
  +6.45928819634555173579e-01
  +6.46152903128538680377e-01
  +6.46481115972540321124e-01
  +6.46904502958136840007e-01
  +6.47411951189462819833e-01
  +6.47990770749091948844e-01
  +6.48627290101801090572e-01
  +6.49307416382606361616e-01
  +6.50017124280645508527e-01
  +6.50742852601788879241e-01
  +6.51471801726962840284e-01
  +6.52192136211316109140e-01
  +6.52893104024589332468e-01
  +6.53565087654668808170e-01
  +6.54199603229150827843e-01
  +6.54789262855307918620e-01
  +6.55327713363257347012e-01
  +6.55809562200996731818e-01
  +6.56230298804449274641e-01
  +6.56586217599437471648e-01
  +6.56874346997537328363e-01
  +6.57092387345603712312e-01
</dep>
<dep _net2.Vt time>
  +1.30438427242303944809e+00
  +1.30578620804917955311e+00
  +1.30713017530933806043e+00
  +1.30839920645830121160e+00
  +1.30957852571061605929e+00
  +1.31065542672651536016e+00
  +1.31161912440199435181e+00
  +1.31246059760889943746e+00
  +1.31317243519887538739e+00
  +1.31374869399507465673e+00
  +1.31418477469120742462e+00
  +1.31447731949666724027e+00
  +1.31462413389562815524e+00
  +1.31462413389566190602e+00
  +1.31447731949677204533e+00
  +1.31418477469138172964e+00
  +1.31374869399531890579e+00
  +1.31317243519918935846e+00
  +1.31246059760928335258e+00
  +1.31161912440244665667e+00
  +1.31065542672703605476e+00
  +1.30957852571120469953e+00
  +1.30839920645895468887e+00
  +1.30713017531005237792e+00
  +1.30578620804994893767e+00
  +1.30438427242344912038e+00
  +1.30294360345478343888e+00
  +1.30148570520446194010e+00
  +1.30003424856218718908e+00
  +1.29861483276610467641e+00
  +1.29725458020446815510e+00
  +1.29598154149900235410e+00
  +1.29482390237967326385e+00
  +1.29380900591692671320e+00
  +1.29296223194561710201e+00
  +1.29230580625747615287e+00
  +1.29185763926935681667e+00
  +1.29163031002651584878e+00
  +1.29163031002643302614e+00
  +1.29185763926911034716e+00
  +1.29230580625707736075e+00
  +1.29296223194508086429e+00
  +1.29380900591627368001e+00
  +1.29482390237892563967e+00
  +1.29598154149818345360e+00
  +1.29725458020360218114e+00
  +1.29861483276521272323e+00
  +1.30003424856129101705e+00
  +1.30148570520357775848e+00
  +1.30294360345392568057e+00
  +1.30438427242263177419e+00
  +1.30578620804917866494e+00
  +1.30713017530933739430e+00
  +1.30839920645830143364e+00
  +1.30957852571061583724e+00
  +1.31065542672651469402e+00
  +1.31161912440199346364e+00
  +1.31246059760889854928e+00
  +1.31317243519887494330e+00
  +1.31374869399507465673e+00
  +1.31418477469120764667e+00
</dep>
<dep _net1.Vt time>
  -5.50004486399302550126e-13
  -5.56965914628772189001e-13
  -5.54960600475772470978e-13
  -5.53687832066797230618e-13
  -5.52828075089870949686e-13
  -5.52217558861310892012e-13
  -5.51765204714243105759e-13
  -5.51416931626540988282e-13
  -5.51138785455333238397e-13
  -5.50908328231672640685e-13
  -5.50709944645096211003e-13
  -5.50532120090014304988e-13
  -5.50365752019503482909e-13
  -5.50203005842022785518e-13
  -5.50036436270314745521e-13
  -5.49858186848800452670e-13
  -5.49659106749678473737e-13
  -5.49427596326574749008e-13
  -5.49147898066752829124e-13
  -5.48797336335731899930e-13
  -5.48341549190598671600e-13
  -5.47725724924195526446e-13
  -5.46857396774553864945e-13
  -5.45569947080993555719e-13
  -5.43537393082946523345e-13
  -5.40048944190900900207e-13
  -5.33300900898550258699e-13
  -5.17526916812348151389e-13
  -4.65047277752092062380e-13
  -1.05194390670338109868e-14
  +1.41943852057282313694e+01
  +1.41997642862001498543e+01
  +1.42005059629876821958e+01
  +1.42007920478578704149e+01
  +1.42009366934572831553e+01
  +1.42010174919154259499e+01
  +1.42010621970854806762e+01
  +1.42010823423012819688e+01
  +1.42010823423012801925e+01
  +1.42010621970854806762e+01
  +1.42010174919154206208e+01
  +1.42009366934572778263e+01
  +1.42007920478578597567e+01
  +1.42005059629876644323e+01
  +1.41997642862001018926e+01
  +1.41943852056207404644e+01
  +1.34286334394902704213e-08
  +1.34290327662941614069e-08
  +1.34290827007385719360e-08
  +1.34290979183688727467e-08
  +1.34291044179444931141e-08
  +1.34291077400940301968e-08
  +1.34291096356729340625e-08
  +1.34291107987121422483e-08
  +1.34291115487399713247e-08
  +1.34291120495271777664e-08
  +1.34291123921523688902e-08
  +1.34291126306965138833e-08
  +1.34291127991138085564e-08
  +1.34291129198421490649e-08
  +1.34291130084968855765e-08
</dep>
<dep Battery.Vt time>
  +1.10000000000000000000e+01
  +1.12506664671286085166e+01
  +1.14973797743297101448e+01
  +1.17362491053693567267e+01
  +1.19635073482034304249e+01
  +1.21755705045849467183e+01
  +1.23690942118573765640e+01
  +1.25410264855515780624e+01
  +1.26886558510040305947e+01
  +1.28096541049320400418e+01
  +1.29021130325903072844e+01
  +1.29645745014573776643e+01
  +1.29960534568565435620e+01
  +1.29960534568565435620e+01
  +1.29645745014573776643e+01
  +1.29021130325903072844e+01
  +1.28096541049320382655e+01
  +1.26886558510040305947e+01
  +1.25410264855515780624e+01
  +1.23690942118573783404e+01
  +1.21755705045849467183e+01
  +1.19635073482034304249e+01
  +1.17362491053693567267e+01
  +1.14973797743297101448e+01
  +1.12506664671286085166e+01
  +1.10000000000000000000e+01
  +1.07493335328713914834e+01
  +1.05026202256702898552e+01
  +1.02637508946306432733e+01
  +1.00364926517965695751e+01
  +9.82442949541505328170e+00
  +9.63090578814262343599e+00
  +9.45897351444842193757e+00
  +9.31134414899596940529e+00
  +9.19034589506795995817e+00
  +9.09788696740969271559e+00
  +9.03542549854262233566e+00
  +9.00394654314345643797e+00
  +9.00394654314345643797e+00
  +9.03542549854262233566e+00
  +9.09788696740969271559e+00
  +9.19034589506795995817e+00
  +9.31134414899596940529e+00
  +9.45897351444842016122e+00
  +9.63090578814262165963e+00
  +9.82442949541505328170e+00
  +1.00364926517965695751e+01
  +1.02637508946306450497e+01
  +1.05026202256702898552e+01
  +1.07493335328713914834e+01
  +1.10000000000000000000e+01
  +1.12506664671286085166e+01
  +1.14973797743297101448e+01
  +1.17362491053693567267e+01
  +1.19635073482034322012e+01
  +1.21755705045849467183e+01
  +1.23690942118573783404e+01
  +1.25410264855515780624e+01
  +1.26886558510040288184e+01
  +1.28096541049320382655e+01
  +1.29021130325903072844e+01
</dep>
<dep _net0.Vt time>
  +1.10000000000000000000e+01
  +1.10000000000000000000e+01
  +1.10000000000000000000e+01
  +1.10000000000000000000e+01
  +1.10000000000000000000e+01
  +1.10000000000000000000e+01
  +1.10000000000000000000e+01
  +1.10000000000000000000e+01
  +1.10000000000000000000e+01
  +1.10000000000000000000e+01
  +1.10000000000000000000e+01
  +1.10000000000000000000e+01
  +1.10000000000000000000e+01
  +1.10000000000000000000e+01
  +1.10000000000000000000e+01
  +1.10000000000000000000e+01
  +1.10000000000000000000e+01
  +1.10000000000000000000e+01
  +1.10000000000000000000e+01
  +1.10000000000000000000e+01
  +1.10000000000000000000e+01
  +1.10000000000000000000e+01
  +1.10000000000000000000e+01
  +1.10000000000000000000e+01
  +1.10000000000000000000e+01
  +1.10000000000000000000e+01
  +1.10000000000000000000e+01
  +1.10000000000000000000e+01
  +1.10000000000000000000e+01
  +1.10000000000000000000e+01
  +1.10000000000000000000e+01
  +1.10000000000000000000e+01
  +1.10000000000000000000e+01
  +1.10000000000000000000e+01
  +1.10000000000000000000e+01
  +1.10000000000000000000e+01
  +1.10000000000000000000e+01
  +1.10000000000000000000e+01
  +1.10000000000000000000e+01
  +1.10000000000000000000e+01
  +1.10000000000000000000e+01
  +1.10000000000000000000e+01
  +1.10000000000000000000e+01
  +1.10000000000000000000e+01
  +1.10000000000000000000e+01
  +1.10000000000000000000e+01
